Id,Time[ns],1:I²C: Address/Data
1,3905455000.00,Start
2,3905570000.00,Address write: A0
3,3906357500.00,Write
4,3906470000.00,ACK
5,3906587500.00,Data write: 40
6,3907490000.00,ACK
7,3907602500.00,Start repeat
8,3907717500.00,Address read: A1
9,3908507500.00,Read
10,3908620000.00,ACK
11,3908735000.00,Data read: 00
12,3909377500.00,ACK
13,3909490000.00,Data read: FE
14,3910132500.00,ACK
15,3910245000.00,Data read: 00
16,3910887500.00,ACK
17,3911000000.00,Data read: EB
18,3911642500.00,ACK
19,3911755000.00,Data read: 00
20,3912397500.00,ACK
21,3912510000.00,Data read: 08
22,3913152500.00,ACK
23,3913265000.00,Data read: 00
24,3913907500.00,ACK
25,3914020000.00,Data read: 00
26,3914662500.00,ACK
27,3914775000.00,Data read: 00
28,3915417500.00,ACK
29,3915530000.00,Data read: 00
30,3916172500.00,ACK
31,3916285000.00,Data read: 10
32,3916927500.00,ACK
33,3917042500.00,Data read: 54
34,3917682500.00,ACK
35,3917795000.00,Data read: 20
36,3918437500.00,ACK
37,3918552500.00,Data read: 08
38,3919195000.00,ACK
39,3919307500.00,Data read: 0A
40,3919950000.00,ACK
41,3920062500.00,Data read: 2C
42,3920705000.00,ACK
43,3920817500.00,Data read: 90
44,3921460000.00,ACK
45,3921572500.00,Data read: 02
46,3922215000.00,ACK
47,3922327500.00,Data read: 00
48,3922970000.00,ACK
49,3923082500.00,Data read: 00
50,3923725000.00,ACK
51,3923837500.00,Data read: 00
52,3924480000.00,ACK
53,3924592500.00,Data read: 00
54,3925235000.00,ACK
55,3925347500.00,Data read: 00
56,3925990000.00,ACK
57,3926105000.00,Data read: 00
58,3926745000.00,ACK
59,3926860000.00,Data read: 00
60,3927500000.00,ACK
61,3927615000.00,Data read: 00
62,3928257500.00,ACK
63,3928370000.00,Data read: 00
64,3929012500.00,ACK
65,3929125000.00,Data read: 00
66,3929767500.00,ACK
67,3929880000.00,Data read: 03
68,3930522500.00,ACK
69,3930635000.00,Data read: 00
70,3931277500.00,ACK
71,3931390000.00,Data read: 00
72,3932032500.00,ACK
73,3932145000.00,Data read: 00
74,3932787500.00,ACK
75,3932900000.00,Data read: 00
76,3933542500.00,ACK
77,3933655000.00,Data read: 00
78,3934297500.00,ACK
79,3934410000.00,Data read: 00
80,3935052500.00,ACK
81,3935167500.00,Data read: 00
82,3935807500.00,ACK
83,3935922500.00,Data read: 00
84,3936562500.00,ACK
85,3936677500.00,Data read: 00
86,3937317500.00,ACK
87,3937432500.00,Data read: 00
88,3938075000.00,ACK
89,3938187500.00,Data read: 00
90,3938830000.00,ACK
91,3938942500.00,Data read: 00
92,3939585000.00,ACK
93,3939697500.00,Data read: 00
94,3940340000.00,ACK
95,3940452500.00,Data read: 00
96,3941095000.00,ACK
97,3941207500.00,Data read: 00
98,3941850000.00,ACK
99,3941962500.00,Data read: 00
100,3942605000.00,ACK
101,3942717500.00,Data read: 00
102,3943360000.00,ACK
103,3943472500.00,Data read: 00
104,3944115000.00,ACK
105,3944227500.00,Data read: 00
106,3944870000.00,ACK
107,3944985000.00,Data read: 00
108,3945627500.00,ACK
109,3945740000.00,Data read: 00
110,3946382500.00,ACK
111,3946495000.00,Data read: 00
112,3947137500.00,ACK
113,3947250000.00,Data read: 00
114,3947892500.00,ACK
115,3948005000.00,Data read: 00
116,3948647500.00,ACK
117,3948760000.00,Data read: 00
118,3949402500.00,ACK
119,3949515000.00,Data read: 00
120,3950157500.00,ACK
121,3950270000.00,Data read: 00
122,3950912500.00,ACK
123,3951025000.00,Data read: 00
124,3951667500.00,ACK
125,3951780000.00,Data read: 00
126,3952422500.00,ACK
127,3952535000.00,Data read: 00
128,3953177500.00,ACK
129,3953290000.00,Data read: 00
130,3953932500.00,ACK
131,3954047500.00,Data read: 00
132,3954690000.00,ACK
133,3954802500.00,Data read: 00
134,3955445000.00,ACK
135,3955557500.00,Data read: 00
136,3956200000.00,ACK
137,3956312500.00,Data read: 00
138,3956955000.00,ACK
139,3957067500.00,Data read: 00
140,3957710000.00,ACK
141,3957822500.00,Data read: 00
142,3958465000.00,ACK
143,3958577500.00,Data read: 00
144,3959220000.00,ACK
145,3959332500.00,Data read: 00
146,3959975000.00,ACK
147,3960087500.00,Data read: 00
148,3960730000.00,ACK
149,3960842500.00,Data read: 00
150,3961485000.00,ACK
151,3961600000.00,Data read: 00
152,3962240000.00,ACK
153,3962355000.00,Data read: 00
154,3962995000.00,ACK
155,3963110000.00,Data read: 00
156,3963750000.00,ACK
157,3963865000.00,Data read: 00
158,3964507500.00,ACK
159,3964620000.00,Data read: 00
160,3965262500.00,ACK
161,3965375000.00,Data read: 00
162,3966017500.00,ACK
163,3966130000.00,Data read: 00
164,3966772500.00,ACK
165,3966885000.00,Data read: 00
166,3967527500.00,ACK
167,3967640000.00,Data read: 00
168,3968282500.00,ACK
169,3968395000.00,Data read: 00
170,3969037500.00,ACK
171,3969150000.00,Data read: 00
172,3969792500.00,ACK
173,3969905000.00,Data read: 00
174,3970547500.00,ACK
175,3970660000.00,Data read: 00
176,3971302500.00,ACK
177,3971417500.00,Data read: 00
178,3972060000.00,ACK
179,3972172500.00,Data read: 00
180,3972815000.00,ACK
181,3972927500.00,Data read: 00
182,3973570000.00,ACK
183,3973682500.00,Data read: 00
184,3974325000.00,ACK
185,3974437500.00,Data read: 00
186,3975080000.00,ACK
187,3975192500.00,Data read: 00
188,3975835000.00,ACK
189,3975947500.00,Data read: 00
190,3976590000.00,ACK
191,3976702500.00,Data read: 00
192,3977345000.00,ACK
193,3977457500.00,Data read: 00
194,3978100000.00,ACK
195,3978212500.00,Data read: 00
196,3978855000.00,ACK
197,3978967500.00,Data read: 00
198,3979610000.00,ACK
199,3979722500.00,Data read: 00
200,3980365000.00,ACK
201,3980480000.00,Data read: 00
202,3981122500.00,ACK
203,3981235000.00,Data read: 00
204,3981875000.00,ACK
205,3981990000.00,Data read: 00
206,3982632500.00,ACK
207,3982745000.00,Data read: 00
208,3983387500.00,ACK
209,3983500000.00,Data read: 00
210,3984142500.00,ACK
211,3984255000.00,Data read: 00
212,3984897500.00,ACK
213,3985010000.00,Data read: 00
214,3985652500.00,ACK
215,3985765000.00,Data read: 00
216,3986407500.00,ACK
217,3986520000.00,Data read: 00
218,3987162500.00,ACK
219,3987275000.00,Data read: 00
220,3987917500.00,ACK
221,3988032500.00,Data read: 00
222,3988672500.00,ACK
223,3988787500.00,Data read: 00
224,3989427500.00,ACK
225,3989542500.00,Data read: 00
226,3990182500.00,ACK
227,3990297500.00,Data read: 00
228,3990940000.00,ACK
229,3991052500.00,Data read: 00
230,3991695000.00,ACK
231,3991807500.00,Data read: 00
232,3992450000.00,ACK
233,3992562500.00,Data read: 00
234,3993205000.00,ACK
235,3993317500.00,Data read: 00
236,3993960000.00,ACK
237,3994072500.00,Data read: 00
238,3994715000.00,ACK
239,3994827500.00,Data read: 00
240,3995470000.00,ACK
241,3995582500.00,Data read: 00
242,3996225000.00,ACK
243,3996337500.00,Data read: 00
244,3996980000.00,ACK
245,3997092500.00,Data read: 00
246,3997735000.00,ACK
247,3997850000.00,Data read: 00
248,3998492500.00,ACK
249,3998605000.00,Data read: 00
250,3999245000.00,ACK
251,3999360000.00,Data read: 00
252,4000002500.00,ACK
253,4000115000.00,Data read: 00
254,4000757500.00,ACK
255,4000870000.00,Data read: 00
256,4001512500.00,ACK
257,4001625000.00,Data read: 00
258,4002267500.00,ACK
259,4002380000.00,Data read: 00
260,4003022500.00,ACK
261,4003135000.00,Data read: 00
262,4003777500.00,ACK
263,4003890000.00,Data read: 00
264,4004532500.00,ACK
265,4004645000.00,Data read: 00
266,4005287500.00,ACK
267,4005400000.00,Data read: 60
268,4006042500.00,ACK
269,4006155000.00,Data read: 13
270,4006797500.00,ACK
271,4006912500.00,Data read: 00
272,4007555000.00,ACK
273,4007667500.00,Data read: 00
274,4008307500.00,ACK
275,4008422500.00,Data read: A4
276,4009065000.00,ACK
277,4009177500.00,Data read: FD
278,4009820000.00,ACK
279,4009932500.00,Data read: 10
280,4010575000.00,ACK
281,4010687500.00,Data read: 41
282,4011330000.00,ACK
283,4011442500.00,Data read: FF
284,4012085000.00,ACK
285,4012197500.00,Data read: 01
286,4012840000.00,ACK
287,4012952500.00,Data read: 60
288,4013595000.00,ACK
289,4013707500.00,Data read: 00
290,4014350000.00,ACK
291,4014465000.00,Data read: 11
292,4015105000.00,ACK
293,4015220000.00,Data read: 00
294,4015860000.00,ACK
295,4015972500.00,Data read: 00
296,4016615000.00,ACK
297,4016730000.00,Data read: 00
298,4017372500.00,ACK
299,4017485000.00,Data read: 00
300,4018127500.00,ACK
301,4018240000.00,Data read: 00
302,4018882500.00,ACK
303,4018995000.00,Data read: 00
304,4019637500.00,ACK
305,4019750000.00,Data read: 00
306,4020392500.00,ACK
307,4020505000.00,Data read: F0
308,4021147500.00,ACK
309,4021260000.00,Data read: 00
310,4021902500.00,ACK
311,4022015000.00,Data read: 00
312,4022657500.00,ACK
313,4022770000.00,Data read: 00
314,4023412500.00,ACK
315,4023525000.00,Data read: 00
316,4024167500.00,ACK
317,4024282500.00,Data read: 00
318,4024922500.00,ACK
319,4025037500.00,Data read: 00
320,4025677500.00,ACK
321,4025792500.00,Data read: 00
322,4026435000.00,ACK
323,4026547500.00,Data read: 00
324,4027190000.00,ACK
325,4027302500.00,Data read: 00
326,4027945000.00,ACK
327,4028057500.00,Data read: 00
328,4028700000.00,ACK
329,4028812500.00,Data read: 00
330,4029455000.00,ACK
331,4029567500.00,Data read: 00
332,4030210000.00,ACK
333,4030322500.00,Data read: 00
334,4030965000.00,ACK
335,4031077500.00,Data read: 00
336,4031720000.00,ACK
337,4031832500.00,Data read: 00
338,4032475000.00,ACK
339,4032587500.00,Data read: 00
340,4033230000.00,ACK
341,4033345000.00,Data read: 00
342,4033987500.00,ACK
343,4034100000.00,Data read: 00
344,4034740000.00,ACK
345,4034855000.00,Data read: 00
346,4035497500.00,ACK
347,4035610000.00,Data read: 00
348,4036252500.00,ACK
349,4036365000.00,Data read: 00
350,4037007500.00,ACK
351,4037120000.00,Data read: 00
352,4037762500.00,ACK
353,4037875000.00,Data read: 00
354,4038517500.00,ACK
355,4038630000.00,Data read: 00
356,4039272500.00,ACK
357,4039385000.00,Data read: 00
358,4040027500.00,ACK
359,4040140000.00,Data read: 00
360,4040782500.00,ACK
361,4040897500.00,Data read: 00
362,4041537500.00,ACK
363,4041652500.00,Data read: 00
364,4042292500.00,ACK
365,4042405000.00,Data read: 00
366,4043047500.00,ACK
367,4043162500.00,Data read: 00
368,4043805000.00,ACK
369,4043917500.00,Data read: 00
370,4044560000.00,ACK
371,4044672500.00,Data read: 00
372,4045315000.00,ACK
373,4045427500.00,Data read: 00
374,4046070000.00,ACK
375,4046182500.00,Data read: 00
376,4046825000.00,ACK
377,4046937500.00,Data read: 00
378,4047580000.00,ACK
379,4047692500.00,Data read: 00
380,4048335000.00,ACK
381,4048447500.00,Data read: 0A
382,4049090000.00,ACK
383,4049202500.00,Data read: 01
384,4049845000.00,ACK
385,4049957500.00,Data read: 00
386,4050600000.00,ACK
387,4050715000.00,Data read: 00
388,4051355000.00,ACK
389,4051470000.00,Data read: 00
390,4052110000.00,ACK
391,4052225000.00,Data read: 00
392,4052867500.00,ACK
393,4052980000.00,Data read: 00
394,4053622500.00,NACK
395,4053732500.00,Stop
396,4053812500.00,Start
397,4053927500.00,Address write: A0
398,4054717500.00,Write
399,4054830000.00,ACK
400,4054947500.00,Data write: 10
401,4055850000.00,ACK
402,4055962500.00,Start repeat
403,4056077500.00,Address read: A1
404,4056867500.00,Read
405,4056980000.00,ACK
406,4057095000.00,Data read: 00
407,4057735000.00,ACK
408,4057850000.00,Data read: 76
409,4058490000.00,ACK
410,4058605000.00,Data read: 02
411,4059245000.00,ACK
412,4059360000.00,Data read: 51
413,4060000000.00,ACK
414,4060115000.00,Data read: 00
415,4060755000.00,ACK
416,4060870000.00,Data read: 6F
417,4061512500.00,ACK
418,4061625000.00,Data read: 40
419,4062267500.00,ACK
420,4062380000.00,Data read: 00
421,4063022500.00,ACK
422,4063135000.00,Data read: 00
423,4063777500.00,ACK
424,4063890000.00,Data read: 00
425,4064532500.00,ACK
426,4064645000.00,Data read: 2C
427,4065287500.00,ACK
428,4065400000.00,Data read: 38
429,4066042500.00,ACK
430,4066155000.00,Data read: 00
431,4066797500.00,ACK
432,4066910000.00,Data read: 00
433,4067552500.00,ACK
434,4067667500.00,Data read: 00
435,4068307500.00,ACK
436,4068420000.00,Data read: 00
437,4069062500.00,ACK
438,4069177500.00,Data read: 00
439,4069820000.00,ACK
440,4069932500.00,Data read: 00
441,4070575000.00,ACK
442,4070687500.00,Data read: 00
443,4071330000.00,ACK
444,4071442500.00,Data read: 00
445,4072085000.00,ACK
446,4072197500.00,Data read: 00
447,4072840000.00,ACK
448,4072952500.00,Data read: 00
449,4073595000.00,ACK
450,4073707500.00,Data read: 00
451,4074350000.00,ACK
452,4074462500.00,Data read: 00
453,4075105000.00,ACK
454,4075217500.00,Data read: 00
455,4075860000.00,ACK
456,4075972500.00,Data read: 00
457,4076615000.00,ACK
458,4076727500.00,Data read: 00
459,4077372500.00,ACK
460,4077485000.00,Data read: 00
461,4078125000.00,ACK
462,4078240000.00,Data read: 10
463,4078882500.00,ACK
464,4078995000.00,Data read: 00
465,4079635000.00,ACK
466,4079750000.00,Data read: 00
467,4080392500.00,ACK
468,4080505000.00,Data read: 00
469,4081147500.00,ACK
470,4081260000.00,Data read: 00
471,4081902500.00,ACK
472,4082015000.00,Data read: 00
473,4082657500.00,ACK
474,4082770000.00,Data read: 00
475,4083412500.00,ACK
476,4083525000.00,Data read: 00
477,4084167500.00,ACK
478,4084280000.00,Data read: 00
479,4084922500.00,ACK
480,4085037500.00,Data read: 00
481,4085677500.00,ACK
482,4085792500.00,Data read: 00
483,4086432500.00,ACK
484,4086547500.00,Data read: 00
485,4087187500.00,ACK
486,4087302500.00,Data read: 00
487,4087945000.00,ACK
488,4088057500.00,Data read: 00
489,4088697500.00,ACK
490,4088812500.00,Data read: 00
491,4089452500.00,ACK
492,4089567500.00,Data read: 00
493,4090210000.00,ACK
494,4090322500.00,Data read: 00
495,4090965000.00,ACK
496,4091077500.00,Data read: 00
497,4091720000.00,ACK
498,4091832500.00,Data read: EA
499,4092475000.00,NACK
500,4092587500.00,Stop
501,4092667500.00,Start
502,4092782500.00,Address write: A0
503,4093572500.00,Write
504,4093685000.00,ACK
505,4093802500.00,Data write: 3F
506,4094702500.00,ACK
507,4094817500.00,Start repeat
508,4094932500.00,Address read: A1
509,4095722500.00,Read
510,4095835000.00,ACK
511,4095947500.00,Data read: F0
512,4096590000.00,NACK
513,4096702500.00,Stop
514,4096785000.00,Start
515,4096900000.00,Address write: A0
516,4097687500.00,Write
517,4097800000.00,ACK
518,4097917500.00,Data write: FC
519,4098820000.00,ACK
520,4098932500.00,Start repeat
521,4099047500.00,Address read: A1
522,4099837500.00,Read
523,4099950000.00,ACK
524,4100065000.00,Data read: 00
525,4100707500.00,NACK
526,4100820000.00,Stop
527,5471277500.00,Start
528,5471325000.00,Stop
529,5471347500.00,Start
530,5471392500.00,Stop
531,5471415000.00,Start
532,5471457500.00,Stop
533,5471480000.00,Start
534,5471525000.00,Stop
535,5471547500.00,Start
536,5471590000.00,Stop
537,5471612500.00,Start
538,5471655000.00,Stop
539,5471677500.00,Start
540,5471722500.00,Stop
541,5471745000.00,Start
542,5471787500.00,Stop
543,5471810000.00,Start
544,5471855000.00,Stop
545,5471877500.00,Start
546,5471920000.00,Stop
547,5471942500.00,Start
548,5471985000.00,Stop
549,5472007500.00,Start
550,5472052500.00,Stop
551,5472075000.00,Start
552,5472117500.00,Stop
553,5472140000.00,Start
554,5472185000.00,Stop
555,5472207500.00,Start
556,5472250000.00,Stop
557,5472272500.00,Start
558,5472315000.00,Stop
559,5472340000.00,Start
560,5472390000.00,Address write: A0
561,5472627500.00,Write
562,5472665000.00,ACK
563,5472702500.00,Data write: 10
564,5472972500.00,ACK
565,5473007500.00,Start repeat
566,5473052500.00,Address read: A1
567,5473287500.00,Read
568,5473322500.00,ACK
569,5473360000.00,Data read: 00
570,5473560000.00,ACK
571,5473595000.00,Data read: 76
572,5473790000.00,ACK
573,5473825000.00,Data read: 02
574,5474020000.00,ACK
575,5474052500.00,Data read: 51
576,5474247500.00,ACK
577,5474282500.00,Data read: 00
578,5474475000.00,ACK
579,5474510000.00,Data read: 6F
580,5474705000.00,ACK
581,5474737500.00,Data read: 40
582,5474932500.00,ACK
583,5474967500.00,Data read: 00
584,5475162500.00,ACK
585,5475195000.00,Data read: 00
586,5475390000.00,ACK
587,5475422500.00,Data read: 00
588,5475617500.00,ACK
589,5475652500.00,Data read: 2C
590,5475847500.00,ACK
591,5475880000.00,Data read: 38
592,5476075000.00,ACK
593,5476110000.00,Data read: 00
594,5476302500.00,ACK
595,5476337500.00,Data read: 00
596,5476532500.00,ACK
597,5476565000.00,Data read: 00
598,5476760000.00,ACK
599,5476792500.00,Data read: 00
600,5476987500.00,ACK
601,5477022500.00,Data read: 00
602,5477217500.00,ACK
603,5477250000.00,Data read: 00
604,5477445000.00,ACK
605,5477480000.00,Data read: 00
606,5477672500.00,ACK
607,5477707500.00,Data read: 00
608,5477902500.00,ACK
609,5477935000.00,Data read: 00
610,5478130000.00,ACK
611,5478165000.00,Data read: 00
612,5478360000.00,ACK
613,5478392500.00,Data read: 00
614,5478587500.00,ACK
615,5478620000.00,Data read: 00
616,5478815000.00,ACK
617,5478850000.00,Data read: 00
618,5479042500.00,ACK
619,5479077500.00,Data read: 00
620,5479272500.00,ACK
621,5479305000.00,Data read: 00
622,5479500000.00,ACK
623,5479535000.00,Data read: 00
624,5479727500.00,ACK
625,5479762500.00,Data read: 10
626,5479957500.00,ACK
627,5479990000.00,Data read: 00
628,5480185000.00,ACK
629,5480220000.00,Data read: 00
630,5480415000.00,ACK
631,5480447500.00,Data read: 00
632,5480642500.00,ACK
633,5480675000.00,Data read: 00
634,5480870000.00,ACK
635,5480905000.00,Data read: 00
636,5481100000.00,ACK
637,5481132500.00,Data read: 00
638,5481327500.00,ACK
639,5481362500.00,Data read: 00
640,5481557500.00,ACK
641,5481590000.00,Data read: 00
642,5481785000.00,ACK
643,5481820000.00,Data read: 00
644,5482015000.00,ACK
645,5482047500.00,Data read: 00
646,5482242500.00,ACK
647,5482277500.00,Data read: 00
648,5482470000.00,ACK
649,5482505000.00,Data read: 00
650,5482700000.00,ACK
651,5482732500.00,Data read: 00
652,5482927500.00,ACK
653,5482960000.00,Data read: 00
654,5483155000.00,ACK
655,5483190000.00,Data read: 00
656,5483382500.00,ACK
657,5483417500.00,Data read: 00
658,5483612500.00,ACK
659,5483645000.00,Data read: 00
660,5483840000.00,ACK
661,5483875000.00,Data read: EA
662,5484070000.00,ACK
663,5484102500.00,Data read: F0
664,5484297500.00,ACK
665,5484330000.00,Data read: 00
666,5484525000.00,ACK
667,5484560000.00,Data read: FE
668,5484755000.00,ACK
669,5484787500.00,Data read: 00
670,5484982500.00,ACK
671,5485017500.00,Data read: EB
672,5485212500.00,ACK
673,5485245000.00,Data read: 00
674,5485440000.00,ACK
675,5485472500.00,Data read: 08
676,5485667500.00,ACK
677,5485702500.00,Data read: 00
678,5485895000.00,ACK
679,5485930000.00,Data read: 00
680,5486125000.00,ACK
681,5486157500.00,Data read: 00
682,5486352500.00,ACK
683,5486387500.00,Data read: 00
684,5486580000.00,ACK
685,5486615000.00,Data read: 10
686,5486810000.00,ACK
687,5486842500.00,Data read: 54
688,5487037500.00,ACK
689,5487072500.00,Data read: 20
690,5487267500.00,ACK
691,5487300000.00,Data read: 08
692,5487495000.00,ACK
693,5487530000.00,Data read: 0A
694,5487722500.00,ACK
695,5487757500.00,Data read: 2C
696,5487950000.00,ACK
697,5487985000.00,Data read: 90
698,5488180000.00,ACK
699,5488212500.00,Data read: 02
700,5488407500.00,ACK
701,5488442500.00,Data read: 00
702,5488635000.00,ACK
703,5488670000.00,Data read: 00
704,5488865000.00,ACK
705,5488897500.00,Data read: 00
706,5489092500.00,ACK
707,5489127500.00,Data read: 00
708,5489322500.00,ACK
709,5489355000.00,Data read: 00
710,5489550000.00,ACK
711,5489582500.00,Data read: 00
712,5489777500.00,ACK
713,5489812500.00,Data read: 00
714,5490007500.00,ACK
715,5490040000.00,Data read: 00
716,5490235000.00,ACK
717,5490270000.00,Data read: 00
718,5490462500.00,ACK
719,5490497500.00,Data read: 00
720,5490692500.00,ACK
721,5490725000.00,Data read: 03
722,5490920000.00,ACK
723,5490952500.00,Data read: 00
724,5491147500.00,ACK
725,5491182500.00,Data read: 00
726,5491377500.00,ACK
727,5491410000.00,Data read: 00
728,5491605000.00,ACK
729,5491640000.00,Data read: 00
730,5491832500.00,ACK
731,5491867500.00,Data read: 00
732,5492062500.00,ACK
733,5492095000.00,Data read: 00
734,5492290000.00,ACK
735,5492325000.00,Data read: 00
736,5492520000.00,ACK
737,5492552500.00,Data read: 00
738,5492747500.00,ACK
739,5492780000.00,Data read: 00
740,5492975000.00,ACK
741,5493010000.00,Data read: 00
742,5493202500.00,ACK
743,5493237500.00,Data read: 00
744,5493432500.00,ACK
745,5493465000.00,Data read: 00
746,5493660000.00,ACK
747,5493695000.00,Data read: 00
748,5493887500.00,ACK
749,5493922500.00,Data read: 00
750,5494117500.00,ACK
751,5494150000.00,Data read: 00
752,5494345000.00,ACK
753,5494380000.00,Data read: 00
754,5494575000.00,ACK
755,5494607500.00,Data read: 00
756,5494802500.00,ACK
757,5494837500.00,Data read: 00
758,5495030000.00,ACK
759,5495065000.00,Data read: 00
760,5495260000.00,ACK
761,5495292500.00,Data read: 00
762,5495487500.00,ACK
763,5495520000.00,Data read: 00
764,5495715000.00,ACK
765,5495750000.00,Data read: 00
766,5495945000.00,ACK
767,5495977500.00,Data read: 00
768,5496172500.00,ACK
769,5496205000.00,Data read: 00
770,5496400000.00,ACK
771,5496435000.00,Data read: 00
772,5496630000.00,ACK
773,5496662500.00,Data read: 00
774,5496857500.00,ACK
775,5496892500.00,Data read: 00
776,5497085000.00,ACK
777,5497120000.00,Data read: 00
778,5497315000.00,ACK
779,5497347500.00,Data read: 00
780,5497542500.00,ACK
781,5497577500.00,Data read: 00
782,5497772500.00,ACK
783,5497805000.00,Data read: 00
784,5498000000.00,ACK
785,5498032500.00,Data read: 00
786,5498227500.00,ACK
787,5498262500.00,Data read: 00
788,5498455000.00,ACK
789,5498490000.00,Data read: 00
790,5498685000.00,ACK
791,5498717500.00,Data read: 00
792,5498912500.00,ACK
793,5498947500.00,Data read: 00
794,5499142500.00,ACK
795,5499175000.00,Data read: 00
796,5499370000.00,ACK
797,5499402500.00,Data read: 00
798,5499597500.00,ACK
799,5499632500.00,Data read: 00
800,5499827500.00,ACK
801,5499860000.00,Data read: 00
802,5500055000.00,ACK
803,5500090000.00,Data read: 00
804,5500282500.00,ACK
805,5500317500.00,Data read: 00
806,5500512500.00,ACK
807,5500545000.00,Data read: 00
808,5500740000.00,ACK
809,5500772500.00,Data read: 00
810,5500967500.00,ACK
811,5501002500.00,Data read: 00
812,5501197500.00,ACK
813,5501230000.00,Data read: 00
814,5501425000.00,ACK
815,5501457500.00,Data read: 00
816,5501652500.00,ACK
817,5501687500.00,Data read: 00
818,5501887500.00,ACK
819,5501922500.00,Data read: 00
820,5502117500.00,ACK
821,5502150000.00,Data read: 00
822,5502345000.00,ACK
823,5502380000.00,Data read: 00
824,5502575000.00,ACK
825,5502607500.00,Data read: 00
826,5502802500.00,ACK
827,5502837500.00,Data read: 00
828,5503030000.00,ACK
829,5503065000.00,Data read: 00
830,5503260000.00,ACK
831,5503295000.00,Data read: 00
832,5503487500.00,ACK
833,5503522500.00,Data read: 00
834,5503717500.00,ACK
835,5503750000.00,Data read: 00
836,5503945000.00,ACK
837,5503980000.00,Data read: 00
838,5504175000.00,ACK
839,5504207500.00,Data read: 00
840,5504402500.00,ACK
841,5504437500.00,Data read: 00
842,5504632500.00,ACK
843,5504665000.00,Data read: 00
844,5504860000.00,ACK
845,5504892500.00,Data read: 00
846,5505087500.00,ACK
847,5505122500.00,Data read: 00
848,5505315000.00,ACK
849,5505350000.00,Data read: 00
850,5505545000.00,ACK
851,5505577500.00,Data read: 00
852,5505772500.00,ACK
853,5505807500.00,Data read: 00
854,5506000000.00,ACK
855,5506035000.00,Data read: 00
856,5506230000.00,ACK
857,5506262500.00,Data read: 00
858,5506457500.00,ACK
859,5506492500.00,Data read: 00
860,5506685000.00,ACK
861,5506720000.00,Data read: 00
862,5506915000.00,ACK
863,5506947500.00,Data read: 00
864,5507142500.00,ACK
865,5507177500.00,Data read: 00
866,5507372500.00,ACK
867,5507405000.00,Data read: 00
868,5507600000.00,ACK
869,5507632500.00,Data read: 00
870,5507827500.00,ACK
871,5507862500.00,Data read: 00
872,5508055000.00,ACK
873,5508090000.00,Data read: 00
874,5508285000.00,ACK
875,5508317500.00,Data read: 00
876,5508512500.00,ACK
877,5508547500.00,Data read: 00
878,5508742500.00,ACK
879,5508775000.00,Data read: 00
880,5508970000.00,ACK
881,5509002500.00,Data read: 00
882,5509197500.00,ACK
883,5509232500.00,Data read: 00
884,5509427500.00,ACK
885,5509460000.00,Data read: 00
886,5509655000.00,ACK
887,5509690000.00,Data read: 00
888,5509882500.00,ACK
889,5509917500.00,Data read: 00
890,5510112500.00,ACK
891,5510145000.00,Data read: 00
892,5510340000.00,ACK
893,5510375000.00,Data read: 00
894,5510567500.00,ACK
895,5510602500.00,Data read: 00
896,5510797500.00,ACK
897,5510830000.00,Data read: 00
898,5511025000.00,ACK
899,5511060000.00,Data read: 00
900,5511252500.00,ACK
901,5511287500.00,Data read: 00
902,5511482500.00,ACK
903,5511515000.00,Data read: 00
904,5511710000.00,ACK
905,5511745000.00,Data read: 00
906,5511940000.00,ACK
907,5511972500.00,Data read: 00
908,5512167500.00,ACK
909,5512200000.00,Data read: 00
910,5512395000.00,ACK
911,5512430000.00,Data read: 00
912,5512622500.00,ACK
913,5512657500.00,Data read: 00
914,5512852500.00,ACK
915,5512885000.00,Data read: 00
916,5513080000.00,ACK
917,5513115000.00,Data read: 00
918,5513307500.00,ACK
919,5513342500.00,Data read: 00
920,5513537500.00,ACK
921,5513570000.00,Data read: 60
922,5513765000.00,ACK
923,5513800000.00,Data read: 13
924,5513995000.00,ACK
925,5514027500.00,Data read: 00
926,5514222500.00,ACK
927,5514255000.00,Data read: 00
928,5514450000.00,ACK
929,5514485000.00,Data read: A4
930,5514680000.00,ACK
931,5514712500.00,Data read: FD
932,5514907500.00,ACK
933,5514942500.00,Data read: 10
934,5515135000.00,ACK
935,5515170000.00,Data read: 41
936,5515365000.00,ACK
937,5515397500.00,Data read: FF
938,5515592500.00,ACK
939,5515625000.00,Data read: 01
940,5515820000.00,ACK
941,5515855000.00,Data read: 60
942,5516050000.00,ACK
943,5516082500.00,Data read: 00
944,5516277500.00,ACK
945,5516312500.00,Data read: 11
946,5516505000.00,ACK
947,5516540000.00,Data read: 00
948,5516735000.00,ACK
949,5516767500.00,Data read: 00
950,5516962500.00,ACK
951,5516997500.00,Data read: 00
952,5517192500.00,ACK
953,5517225000.00,Data read: 00
954,5517420000.00,ACK
955,5517452500.00,Data read: 00
956,5517647500.00,ACK
957,5517682500.00,Data read: 00
958,5517875000.00,ACK
959,5517910000.00,Data read: 00
960,5518105000.00,ACK
961,5518137500.00,Data read: F0
962,5518332500.00,ACK
963,5518367500.00,Data read: 00
964,5518560000.00,ACK
965,5518595000.00,Data read: 00
966,5518790000.00,ACK
967,5518822500.00,Data read: 00
968,5519017500.00,ACK
969,5519052500.00,Data read: 00
970,5519245000.00,ACK
971,5519280000.00,Data read: 00
972,5519475000.00,ACK
973,5519510000.00,Data read: 00
974,5519702500.00,ACK
975,5519737500.00,Data read: 00
976,5519932500.00,ACK
977,5519965000.00,Data read: 00
978,5520160000.00,ACK
979,5520192500.00,Data read: 00
980,5520387500.00,ACK
981,5520422500.00,Data read: 00
982,5520615000.00,ACK
983,5520650000.00,Data read: 00
984,5520845000.00,ACK
985,5520877500.00,Data read: 00
986,5521072500.00,ACK
987,5521107500.00,Data read: 00
988,5521302500.00,ACK
989,5521335000.00,Data read: 00
990,5521530000.00,ACK
991,5521565000.00,Data read: 00
992,5521757500.00,ACK
993,5521792500.00,Data read: 00
994,5521987500.00,ACK
995,5522020000.00,Data read: 00
996,5522215000.00,ACK
997,5522250000.00,Data read: 00
998,5522442500.00,ACK
999,5522477500.00,Data read: 00
1000,5522672500.00,ACK
1001,5522705000.00,Data read: 00
1002,5522900000.00,ACK
1003,5522935000.00,Data read: 00
1004,5523127500.00,ACK
1005,5523162500.00,Data read: 00
1006,5523357500.00,ACK
1007,5523390000.00,Data read: 00
1008,5523585000.00,ACK
1009,5523620000.00,Data read: 00
1010,5523812500.00,ACK
1011,5523847500.00,Data read: 00
1012,5524042500.00,ACK
1013,5524075000.00,Data read: 00
1014,5524270000.00,ACK
1015,5524305000.00,Data read: 00
1016,5524500000.00,ACK
1017,5524532500.00,Data read: 00
1018,5524727500.00,ACK
1019,5524760000.00,Data read: 00
1020,5524955000.00,ACK
1021,5524990000.00,Data read: 00
1022,5525182500.00,ACK
1023,5525217500.00,Data read: 00
1024,5525412500.00,ACK
1025,5525445000.00,Data read: 00
1026,5525640000.00,ACK
1027,5525675000.00,Data read: 00
1028,5525867500.00,ACK
1029,5525902500.00,Data read: 00
1030,5526097500.00,ACK
1031,5526130000.00,Data read: 00
1032,5526325000.00,ACK
1033,5526360000.00,Data read: 00
1034,5526555000.00,ACK
1035,5526587500.00,Data read: 0A
1036,5526782500.00,ACK
1037,5526815000.00,Data read: 01
1038,5527010000.00,ACK
1039,5527045000.00,Data read: 00
1040,5527240000.00,ACK
1041,5527272500.00,Data read: 00
1042,5527467500.00,ACK
1043,5527502500.00,Data read: 00
1044,5527695000.00,ACK
1045,5527730000.00,Data read: 00
1046,5527925000.00,ACK
1047,5527957500.00,Data read: 00
1048,5528152500.00,NACK
1049,5528187500.00,Stop
1050,5883977500.00,Start
1051,5884022500.00,Address write: A0
1052,5884257500.00,Write
1053,5884292500.00,ACK
1054,5884330000.00,Data write: 13
1055,5884597500.00,ACK
1056,5884635000.00,Data write: 51
1057,5884905000.00,ACK
1058,5884940000.00,Stop
1059,5884962500.00,Start
1060,5885005000.00,Address write: A0
1061,5885242500.00,Write
1062,5885275000.00,ACK
1063,5885310000.00,Data write: 3F
1064,5885580000.00,ACK
1065,5885615000.00,Data write: F0
1066,5885885000.00,ACK
1067,5885920000.00,Stop
1068,6034952500.00,Start
1069,6035000000.00,Address write: A0
1070,6035237500.00,Write
1071,6035275000.00,ACK
1072,6035312500.00,Data write: 05
1073,6035582500.00,ACK
1074,6035617500.00,Start repeat
1075,6035660000.00,Address read: A1
1076,6035897500.00,Read
1077,6035930000.00,ACK
1078,6035970000.00,Data read: 01
1079,6036165000.00,NACK
1080,6036200000.00,Stop
1081,6036230000.00,Start
1082,6036272500.00,Address write: A0
1083,6036510000.00,Write
1084,6036542500.00,ACK
1085,6036577500.00,Data write: 01
1086,6036847500.00,ACK
1087,6036882500.00,Start repeat
1088,6036927500.00,Address read: A1
1089,6037162500.00,Read
1090,6037197500.00,ACK
1091,6037230000.00,Data read: 83
1092,6037427500.00,ACK
1093,6037462500.00,Data read: 00
1094,6037657500.00,ACK
1095,6037692500.00,Data read: 14
1096,6037887500.00,ACK
1097,6037922500.00,Data read: 02
1098,6038117500.00,ACK
1099,6038152500.00,Data read: 01
1100,6038347500.00,ACK
1101,6038382500.00,Data read: 01
1102,6038577500.00,NACK
1103,6038610000.00,Stop
1104,19133695000.00,Start
1105,19133745000.00,Address write: A0
1106,19134527500.00,Write
1107,19134567500.00,ACK
1108,19134607500.00,Data write: 40
1109,19134885000.00,ACK
1110,19135040000.00,Start repeat
1111,19135085000.00,Address read: A1
1112,19135325000.00,Read
1113,19135362500.00,ACK
1114,19135402500.00,Data read: 00
1115,19135602500.00,NACK
1116,19135637500.00,Stop
1117,19136777500.00,Start
1118,19136827500.00,Address write: A0
1119,19137070000.00,Write
1120,19137107500.00,ACK
1121,19137150000.00,Data write: 40
1122,19137425000.00,ACK
1123,19137460000.00,Start repeat
1124,19137507500.00,Address read: A1
1125,19137747500.00,Read
1126,19137782500.00,ACK
1127,19137822500.00,Data read: 00
1128,19138027500.00,NACK
1129,19138062500.00,Stop
1130,19752770000.00,Start
1131,19753365000.00,Address write: A0
1132,19753610000.00,Write
1133,19753647500.00,ACK
1134,19753685000.00,Data write: 40
1135,19753962500.00,ACK
1136,19753997500.00,Start repeat
1137,19754042500.00,Address read: A1
1138,19754285000.00,Read
1139,19754320000.00,ACK
1140,19754357500.00,Data read: 00
1141,19754560000.00,NACK
1142,19754597500.00,Stop
1143,62154777500.00,Start
1144,62154825000.00,Stop
1145,62154847500.00,Start
1146,62154892500.00,Stop
1147,62154915000.00,Start
1148,62154960000.00,Stop
1149,62154982500.00,Start
1150,62155025000.00,Stop
1151,62155047500.00,Start
1152,62155092500.00,Stop
1153,62155115000.00,Start
1154,62155157500.00,Stop
1155,62155180000.00,Start
1156,62155225000.00,Stop
1157,62155247500.00,Start
1158,62155290000.00,Stop
1159,62155312500.00,Start
1160,62155357500.00,Stop
1161,62155380000.00,Start
1162,62155422500.00,Stop
1163,62155445000.00,Start
1164,62155490000.00,Stop
1165,62155512500.00,Start
1166,62155555000.00,Stop
1167,62155577500.00,Start
1168,62155622500.00,Stop
1169,62155645000.00,Start
1170,62155687500.00,Stop
1171,62155710000.00,Start
1172,62155755000.00,Stop
1173,62155777500.00,Start
1174,62155820000.00,Stop
1175,62163187500.00,Start
1176,62163237500.00,Address write: A0
1177,62163480000.00,Write
1178,62163517500.00,ACK
1179,62163557500.00,Data write: 40
1180,62163835000.00,ACK
1181,62163870000.00,Start repeat
1182,62163915000.00,Address read: A1
1183,62164157500.00,Read
1184,62164192500.00,ACK
1185,62164232500.00,Data read: 00
1186,62164435000.00,NACK
1187,62164470000.00,Stop
1188,62546095000.00,Start
1189,62546142500.00,Stop
1190,62546165000.00,Start
1191,62546210000.00,Stop
1192,62546232500.00,Start
1193,62546275000.00,Stop
1194,62546297500.00,Start
1195,62546342500.00,Stop
1196,62546365000.00,Start
1197,62546407500.00,Stop
1198,62546430000.00,Start
1199,62546475000.00,Stop
1200,62546497500.00,Start
1201,62546540000.00,Stop
1202,62546562500.00,Start
1203,62546605000.00,Stop
1204,62546630000.00,Start
1205,62546672500.00,Stop
1206,62546695000.00,Start
1207,62546737500.00,Stop
1208,62546760000.00,Start
1209,62546805000.00,Stop
1210,62546827500.00,Start
1211,62546870000.00,Stop
1212,62546892500.00,Start
1213,62546937500.00,Stop
1214,62546960000.00,Start
1215,62547002500.00,Stop
1216,62547025000.00,Start
1217,62547070000.00,Stop
1218,62547092500.00,Start
1219,62547135000.00,Stop
1220,62547160000.00,Start
1221,62547210000.00,Address write: A0
1222,62547447500.00,Write
1223,62547482500.00,ACK
1224,62547520000.00,Data write: 10
1225,62547790000.00,ACK
1226,62547825000.00,Start repeat
1227,62547870000.00,Address read: A1
1228,62548105000.00,Read
1229,62548140000.00,ACK
1230,62548177500.00,Data read: 00
1231,62548375000.00,ACK
1232,62548410000.00,Data read: 76
1233,62548605000.00,ACK
1234,62548637500.00,Data read: 02
1235,62548832500.00,ACK
1236,62548865000.00,Data read: 51
1237,62549060000.00,ACK
1238,62549095000.00,Data read: 00
1239,62549290000.00,ACK
1240,62549322500.00,Data read: 6F
1241,62549517500.00,ACK
1242,62549552500.00,Data read: 40
1243,62549745000.00,ACK
1244,62549780000.00,Data read: 00
1245,62549975000.00,ACK
1246,62550007500.00,Data read: 00
1247,62550202500.00,ACK
1248,62550235000.00,Data read: 00
1249,62550430000.00,ACK
1250,62550465000.00,Data read: 2C
1251,62550660000.00,ACK
1252,62550692500.00,Data read: 38
1253,62550887500.00,ACK
1254,62550920000.00,Data read: 00
1255,62551115000.00,ACK
1256,62551150000.00,Data read: 00
1257,62551345000.00,ACK
1258,62551377500.00,Data read: 00
1259,62551572500.00,ACK
1260,62551607500.00,Data read: 00
1261,62551800000.00,ACK
1262,62551835000.00,Data read: 00
1263,62552030000.00,ACK
1264,62552062500.00,Data read: 00
1265,62552257500.00,ACK
1266,62552292500.00,Data read: 00
1267,62552487500.00,ACK
1268,62552520000.00,Data read: 00
1269,62552715000.00,ACK
1270,62552747500.00,Data read: 00
1271,62552942500.00,ACK
1272,62552977500.00,Data read: 00
1273,62553170000.00,ACK
1274,62553205000.00,Data read: 00
1275,62553400000.00,ACK
1276,62553432500.00,Data read: 00
1277,62553627500.00,ACK
1278,62553662500.00,Data read: 00
1279,62553855000.00,ACK
1280,62553890000.00,Data read: 00
1281,62554085000.00,ACK
1282,62554117500.00,Data read: 00
1283,62554312500.00,ACK
1284,62554347500.00,Data read: 00
1285,62554542500.00,ACK
1286,62554575000.00,Data read: 10
1287,62554770000.00,ACK
1288,62554805000.00,Data read: 00
1289,62554997500.00,ACK
1290,62555032500.00,Data read: 00
1291,62555227500.00,ACK
1292,62555260000.00,Data read: 00
1293,62555455000.00,ACK
1294,62555487500.00,Data read: 00
1295,62555682500.00,ACK
1296,62555717500.00,Data read: 00
1297,62555912500.00,ACK
1298,62555945000.00,Data read: 00
1299,62556140000.00,ACK
1300,62556172500.00,Data read: 00
1301,62556367500.00,ACK
1302,62556402500.00,Data read: 00
1303,62556597500.00,ACK
1304,62556630000.00,Data read: 00
1305,62556825000.00,ACK
1306,62556860000.00,Data read: 00
1307,62557052500.00,ACK
1308,62557087500.00,Data read: 00
1309,62557282500.00,ACK
1310,62557315000.00,Data read: 00
1311,62557510000.00,ACK
1312,62557545000.00,Data read: 00
1313,62557737500.00,ACK
1314,62557772500.00,Data read: 00
1315,62557967500.00,ACK
1316,62558000000.00,Data read: 00
1317,62558195000.00,ACK
1318,62558227500.00,Data read: 00
1319,62558422500.00,ACK
1320,62558457500.00,Data read: 00
1321,62558652500.00,ACK
1322,62558685000.00,Data read: EA
1323,62558880000.00,ACK
1324,62558915000.00,Data read: F0
1325,62559107500.00,ACK
1326,62559142500.00,Data read: 00
1327,62559337500.00,ACK
1328,62559370000.00,Data read: FE
1329,62559565000.00,ACK
1330,62559600000.00,Data read: 00
1331,62559795000.00,ACK
1332,62559827500.00,Data read: EB
1333,62560022500.00,ACK
1334,62560055000.00,Data read: 00
1335,62560250000.00,ACK
1336,62560285000.00,Data read: 08
1337,62560477500.00,ACK
1338,62560512500.00,Data read: 00
1339,62560707500.00,ACK
1340,62560740000.00,Data read: 00
1341,62560935000.00,ACK
1342,62560970000.00,Data read: 00
1343,62561162500.00,ACK
1344,62561197500.00,Data read: 00
1345,62561392500.00,ACK
1346,62561425000.00,Data read: 10
1347,62561620000.00,ACK
1348,62561655000.00,Data read: 54
1349,62561850000.00,ACK
1350,62561882500.00,Data read: 20
1351,62562077500.00,ACK
1352,62562112500.00,Data read: 08
1353,62562305000.00,ACK
1354,62562340000.00,Data read: 0A
1355,62562535000.00,ACK
1356,62562567500.00,Data read: 2C
1357,62562762500.00,ACK
1358,62562795000.00,Data read: 90
1359,62562990000.00,ACK
1360,62563025000.00,Data read: 02
1361,62563220000.00,ACK
1362,62563252500.00,Data read: 00
1363,62563447500.00,ACK
1364,62563480000.00,Data read: 00
1365,62563675000.00,ACK
1366,62563710000.00,Data read: 00
1367,62563905000.00,ACK
1368,62563937500.00,Data read: 00
1369,62564132500.00,ACK
1370,62564167500.00,Data read: 00
1371,62564360000.00,ACK
1372,62564395000.00,Data read: 00
1373,62564590000.00,ACK
1374,62564622500.00,Data read: 00
1375,62564817500.00,ACK
1376,62564852500.00,Data read: 00
1377,62565047500.00,ACK
1378,62565080000.00,Data read: 00
1379,62565275000.00,ACK
1380,62565307500.00,Data read: 00
1381,62565502500.00,ACK
1382,62565537500.00,Data read: 03
1383,62565730000.00,ACK
1384,62565765000.00,Data read: 00
1385,62565960000.00,ACK
1386,62565992500.00,Data read: 00
1387,62566187500.00,ACK
1388,62566222500.00,Data read: 00
1389,62566417500.00,ACK
1390,62566450000.00,Data read: 00
1391,62566645000.00,ACK
1392,62566677500.00,Data read: 00
1393,62566872500.00,ACK
1394,62566907500.00,Data read: 00
1395,62567102500.00,ACK
1396,62567135000.00,Data read: 00
1397,62567330000.00,ACK
1398,62567365000.00,Data read: 00
1399,62567557500.00,ACK
1400,62567592500.00,Data read: 00
1401,62567787500.00,ACK
1402,62567820000.00,Data read: 00
1403,62568015000.00,ACK
1404,62568047500.00,Data read: 00
1405,62568242500.00,ACK
1406,62568277500.00,Data read: 00
1407,62568472500.00,ACK
1408,62568505000.00,Data read: 00
1409,62568700000.00,ACK
1410,62568732500.00,Data read: 00
1411,62568927500.00,ACK
1412,62568962500.00,Data read: 00
1413,62569157500.00,ACK
1414,62569190000.00,Data read: 00
1415,62569385000.00,ACK
1416,62569420000.00,Data read: 00
1417,62569612500.00,ACK
1418,62569647500.00,Data read: 00
1419,62569842500.00,ACK
1420,62569875000.00,Data read: 00
1421,62570070000.00,ACK
1422,62570105000.00,Data read: 00
1423,62570297500.00,ACK
1424,62570332500.00,Data read: 00
1425,62570527500.00,ACK
1426,62570560000.00,Data read: 00
1427,62570755000.00,ACK
1428,62570790000.00,Data read: 00
1429,62570982500.00,ACK
1430,62571017500.00,Data read: 00
1431,62571212500.00,ACK
1432,62571245000.00,Data read: 00
1433,62571440000.00,ACK
1434,62571475000.00,Data read: 00
1435,62571667500.00,ACK
1436,62571702500.00,Data read: 00
1437,62571897500.00,ACK
1438,62571930000.00,Data read: 00
1439,62572125000.00,ACK
1440,62572160000.00,Data read: 00
1441,62572355000.00,ACK
1442,62572387500.00,Data read: 00
1443,62572582500.00,ACK
1444,62572617500.00,Data read: 00
1445,62572810000.00,ACK
1446,62572845000.00,Data read: 00
1447,62573037500.00,ACK
1448,62573072500.00,Data read: 00
1449,62573267500.00,ACK
1450,62573300000.00,Data read: 00
1451,62573495000.00,ACK
1452,62573530000.00,Data read: 00
1453,62573722500.00,ACK
1454,62573757500.00,Data read: 00
1455,62573952500.00,ACK
1456,62573985000.00,Data read: 00
1457,62574180000.00,ACK
1458,62574215000.00,Data read: 00
1459,62574410000.00,ACK
1460,62574442500.00,Data read: 00
1461,62574637500.00,ACK
1462,62574672500.00,Data read: 00
1463,62574865000.00,ACK
1464,62574900000.00,Data read: 00
1465,62575095000.00,ACK
1466,62575127500.00,Data read: 00
1467,62575322500.00,ACK
1468,62575357500.00,Data read: 00
1469,62575550000.00,ACK
1470,62575585000.00,Data read: 00
1471,62575780000.00,ACK
1472,62575812500.00,Data read: 00
1473,62576007500.00,ACK
1474,62576040000.00,Data read: 00
1475,62576235000.00,ACK
1476,62576270000.00,Data read: 00
1477,62576465000.00,ACK
1478,62576497500.00,Data read: 00
1479,62576700000.00,ACK
1480,62576735000.00,Data read: 00
1481,62576927500.00,ACK
1482,62576962500.00,Data read: 00
1483,62577157500.00,ACK
1484,62577190000.00,Data read: 00
1485,62577385000.00,ACK
1486,62577420000.00,Data read: 00
1487,62577615000.00,ACK
1488,62577647500.00,Data read: 00
1489,62577842500.00,ACK
1490,62577875000.00,Data read: 00
1491,62578070000.00,ACK
1492,62578105000.00,Data read: 00
1493,62578297500.00,ACK
1494,62578332500.00,Data read: 00
1495,62578527500.00,ACK
1496,62578560000.00,Data read: 00
1497,62578755000.00,ACK
1498,62578790000.00,Data read: 00
1499,62578982500.00,ACK
1500,62579017500.00,Data read: 00
1501,62579212500.00,ACK
1502,62579245000.00,Data read: 00
1503,62579440000.00,ACK
1504,62579475000.00,Data read: 00
1505,62579667500.00,ACK
1506,62579702500.00,Data read: 00
1507,62579897500.00,ACK
1508,62579930000.00,Data read: 00
1509,62580125000.00,ACK
1510,62580160000.00,Data read: 00
1511,62580355000.00,ACK
1512,62580387500.00,Data read: 00
1513,62580582500.00,ACK
1514,62580617500.00,Data read: 00
1515,62580810000.00,ACK
1516,62580845000.00,Data read: 00
1517,62581037500.00,ACK
1518,62581072500.00,Data read: 00
1519,62581267500.00,ACK
1520,62581300000.00,Data read: 00
1521,62581495000.00,ACK
1522,62581530000.00,Data read: 00
1523,62581722500.00,ACK
1524,62581757500.00,Data read: 00
1525,62581952500.00,ACK
1526,62581985000.00,Data read: 00
1527,62582180000.00,ACK
1528,62582215000.00,Data read: 00
1529,62582410000.00,ACK
1530,62582442500.00,Data read: 00
1531,62582637500.00,ACK
1532,62582672500.00,Data read: 00
1533,62582867500.00,ACK
1534,62582900000.00,Data read: 00
1535,62583095000.00,ACK
1536,62583127500.00,Data read: 00
1537,62583322500.00,ACK
1538,62583357500.00,Data read: 00
1539,62583550000.00,ACK
1540,62583585000.00,Data read: 00
1541,62583780000.00,ACK
1542,62583812500.00,Data read: 00
1543,62584007500.00,ACK
1544,62584042500.00,Data read: 00
1545,62584235000.00,ACK
1546,62584270000.00,Data read: 00
1547,62584465000.00,ACK
1548,62584497500.00,Data read: 00
1549,62584692500.00,ACK
1550,62584727500.00,Data read: 00
1551,62584920000.00,ACK
1552,62584955000.00,Data read: 00
1553,62585150000.00,ACK
1554,62585182500.00,Data read: 00
1555,62585377500.00,ACK
1556,62585412500.00,Data read: 00
1557,62585607500.00,ACK
1558,62585640000.00,Data read: 00
1559,62585835000.00,ACK
1560,62585867500.00,Data read: 00
1561,62586062500.00,ACK
1562,62586097500.00,Data read: 00
1563,62586290000.00,ACK
1564,62586325000.00,Data read: 00
1565,62586520000.00,ACK
1566,62586552500.00,Data read: 00
1567,62586747500.00,ACK
1568,62586782500.00,Data read: 00
1569,62586977500.00,ACK
1570,62587010000.00,Data read: 00
1571,62587205000.00,ACK
1572,62587237500.00,Data read: 00
1573,62587432500.00,ACK
1574,62587467500.00,Data read: 00
1575,62587662500.00,ACK
1576,62587695000.00,Data read: 00
1577,62587890000.00,ACK
1578,62587925000.00,Data read: 00
1579,62588117500.00,ACK
1580,62588152500.00,Data read: 00
1581,62588347500.00,ACK
1582,62588380000.00,Data read: 60
1583,62588575000.00,ACK
1584,62588610000.00,Data read: 13
1585,62588802500.00,ACK
1586,62588837500.00,Data read: 00
1587,62589032500.00,ACK
1588,62589065000.00,Data read: 00
1589,62589260000.00,ACK
1590,62589295000.00,Data read: A4
1591,62589487500.00,ACK
1592,62589522500.00,Data read: FD
1593,62589717500.00,ACK
1594,62589750000.00,Data read: 10
1595,62589945000.00,ACK
1596,62589980000.00,Data read: 41
1597,62590175000.00,ACK
1598,62590207500.00,Data read: FF
1599,62590402500.00,ACK
1600,62590435000.00,Data read: 01
1601,62590630000.00,ACK
1602,62590665000.00,Data read: 60
1603,62590857500.00,ACK
1604,62590892500.00,Data read: 00
1605,62591087500.00,ACK
1606,62591120000.00,Data read: 11
1607,62591315000.00,ACK
1608,62591350000.00,Data read: 00
1609,62591542500.00,ACK
1610,62591577500.00,Data read: 00
1611,62591772500.00,ACK
1612,62591805000.00,Data read: 00
1613,62592000000.00,ACK
1614,62592035000.00,Data read: 00
1615,62592230000.00,ACK
1616,62592262500.00,Data read: 00
1617,62592457500.00,ACK
1618,62592490000.00,Data read: 00
1619,62592685000.00,ACK
1620,62592720000.00,Data read: 00
1621,62592915000.00,ACK
1622,62592947500.00,Data read: F0
1623,62593142500.00,ACK
1624,62593177500.00,Data read: 00
1625,62593370000.00,ACK
1626,62593405000.00,Data read: 00
1627,62593597500.00,ACK
1628,62593632500.00,Data read: 00
1629,62593827500.00,ACK
1630,62593860000.00,Data read: 00
1631,62594055000.00,ACK
1632,62594090000.00,Data read: 00
1633,62594285000.00,ACK
1634,62594317500.00,Data read: 00
1635,62594512500.00,ACK
1636,62594547500.00,Data read: 00
1637,62594740000.00,ACK
1638,62594775000.00,Data read: 00
1639,62594970000.00,ACK
1640,62595002500.00,Data read: 00
1641,62595197500.00,ACK
1642,62595232500.00,Data read: 00
1643,62595427500.00,ACK
1644,62595460000.00,Data read: 00
1645,62595655000.00,ACK
1646,62595687500.00,Data read: 00
1647,62595882500.00,ACK
1648,62595917500.00,Data read: 00
1649,62596110000.00,ACK
1650,62596145000.00,Data read: 00
1651,62596340000.00,ACK
1652,62596372500.00,Data read: 00
1653,62596567500.00,ACK
1654,62596602500.00,Data read: 00
1655,62596795000.00,ACK
1656,62596830000.00,Data read: 00
1657,62597025000.00,ACK
1658,62597057500.00,Data read: 00
1659,62597252500.00,ACK
1660,62597287500.00,Data read: 00
1661,62597480000.00,ACK
1662,62597515000.00,Data read: 00
1663,62597710000.00,ACK
1664,62597742500.00,Data read: 00
1665,62597937500.00,ACK
1666,62597972500.00,Data read: 00
1667,62598167500.00,ACK
1668,62598200000.00,Data read: 00
1669,62598395000.00,ACK
1670,62598427500.00,Data read: 00
1671,62598622500.00,ACK
1672,62598657500.00,Data read: 00
1673,62598850000.00,ACK
1674,62598885000.00,Data read: 00
1675,62599080000.00,ACK
1676,62599112500.00,Data read: 00
1677,62599307500.00,ACK
1678,62599342500.00,Data read: 00
1679,62599537500.00,ACK
1680,62599570000.00,Data read: 00
1681,62599765000.00,ACK
1682,62599797500.00,Data read: 00
1683,62599992500.00,ACK
1684,62600027500.00,Data read: 00
1685,62600222500.00,ACK
1686,62600255000.00,Data read: 00
1687,62600450000.00,ACK
1688,62600485000.00,Data read: 00
1689,62600677500.00,ACK
1690,62600712500.00,Data read: 00
1691,62600907500.00,ACK
1692,62600940000.00,Data read: 00
1693,62601135000.00,ACK
1694,62601170000.00,Data read: 00
1695,62601362500.00,ACK
1696,62601397500.00,Data read: 0A
1697,62601592500.00,ACK
1698,62601625000.00,Data read: 01
1699,62601820000.00,ACK
1700,62601855000.00,Data read: 00
1701,62602047500.00,ACK
1702,62602082500.00,Data read: 00
1703,62602277500.00,ACK
1704,62602310000.00,Data read: 00
1705,62602505000.00,ACK
1706,62602540000.00,Data read: 00
1707,62602735000.00,ACK
1708,62602767500.00,Data read: 00
1709,62602962500.00,NACK
1710,62602997500.00,Stop
1711,62958780000.00,Start
1712,62958822500.00,Address write: A0
1713,62959060000.00,Write
1714,62959092500.00,ACK
1715,62959127500.00,Data write: 13
1716,62959397500.00,ACK
1717,62959435000.00,Data write: 51
1718,62959702500.00,ACK
1719,62959740000.00,Stop
1720,62959762500.00,Start
1721,62959805000.00,Address write: A0
1722,62960042500.00,Write
1723,62960075000.00,ACK
1724,62960110000.00,Data write: 3F
1725,62960380000.00,ACK
1726,62960415000.00,Data write: F0
1727,62960682500.00,ACK
1728,62960717500.00,Stop
1729,63109712500.00,Start
1730,63109762500.00,Address write: A0
1731,63110000000.00,Write
1732,63110037500.00,ACK
1733,63110075000.00,Data write: 05
1734,63110345000.00,ACK
1735,63110380000.00,Start repeat
1736,63110425000.00,Address read: A1
1737,63110660000.00,Read
1738,63110692500.00,ACK
1739,63110732500.00,Data read: 01
1740,63110930000.00,NACK
1741,63110965000.00,Stop
1742,63110995000.00,Start
1743,63111037500.00,Address write: A0
1744,63111275000.00,Write
1745,63111307500.00,ACK
1746,63111342500.00,Data write: 01
1747,63111612500.00,ACK
1748,63111647500.00,Start repeat
1749,63111692500.00,Address read: A1
1750,63111927500.00,Read
1751,63111962500.00,ACK
1752,63111997500.00,Data read: 90
1753,63112192500.00,ACK
1754,63112227500.00,Data read: 57
1755,63112422500.00,ACK
1756,63112457500.00,Data read: 14
1757,63112652500.00,ACK
1758,63112687500.00,Data read: 02
1759,63112882500.00,ACK
1760,63112915000.00,Data read: 01
1761,63113112500.00,ACK
1762,63113145000.00,Data read: 01
1763,63113342500.00,NACK
1764,63113375000.00,Stop
1765,76206342500.00,Start
1766,76206395000.00,Address write: A0
1767,76206635000.00,Write
1768,76206672500.00,ACK
1769,76206712500.00,Data write: 40
1770,76206987500.00,ACK
1771,76207022500.00,Start repeat
1772,76207070000.00,Address read: A1
1773,76207312500.00,Read
1774,76207345000.00,ACK
1775,76207385000.00,Data read: 00
1776,76208130000.00,NACK
1777,76208167500.00,Stop
1778,76209285000.00,Start
1779,76209337500.00,Address write: A0
1780,76209577500.00,Write
1781,76209617500.00,ACK
1782,76209777500.00,Data write: 40
1783,76210055000.00,ACK
1784,76210087500.00,Start repeat
1785,76210135000.00,Address read: A1
1786,76210377500.00,Read
1787,76210410000.00,ACK
1788,76210450000.00,Data read: 00
1789,76210652500.00,NACK
1790,76210687500.00,Stop
1791,76825575000.00,Start
1792,76825627500.00,Address write: A0
1793,76825870000.00,Write
1794,76825907500.00,ACK
1795,76825947500.00,Data write: 40
1796,76826222500.00,ACK
1797,76826260000.00,Start repeat
1798,76826305000.00,Address read: A1
1799,76827082500.00,Read
1800,76827117500.00,ACK
1801,76827160000.00,Data read: 00
1802,76827362500.00,NACK
1803,76827397500.00,Stop
